time	V(n002)/6	V(n003)	Ix(U1:drain)
Step Information: V1=120  (Step: 1/2)
0.000000000000000e+00	2.015648e+01	4.287420e+00	1.668152e-05
2.974219199803745e-13	2.015648e+01	4.293468e+00	1.661543e-05
8.922657599411234e-13	2.015648e+01	4.302230e+00	1.648113e-05
2.081953439862623e-12	2.015648e+01	4.310763e+00	1.620211e-05
4.461328799705620e-12	2.015648e+01	4.315639e+00	1.560139e-05
9.220079519391615e-12	2.015648e+01	4.317089e+00	1.422932e-05
1.873758095876361e-11	2.015648e+01	4.317949e+00	1.080280e-05
3.777258383750759e-11	2.015648e+01	4.319790e+00	1.221873e-06
7.584258959499556e-11	2.015648e+01	4.323442e+00	-2.883138e-05
1.519826011099715e-10	2.015648e+01	4.330757e+00	-1.322336e-04
3.042626241399233e-10	2.015648e+01	4.345379e+00	-4.913194e-04
5.484032491399234e-10	2.015648e+01	4.368818e+00	-1.399940e-03
7.925438741399235e-10	2.015648e+01	4.392247e+00	-2.698891e-03
1.036684499139923e-09	2.015648e+01	4.415660e+00	-4.394589e-03
1.280825124139924e-09	2.015648e+01	4.439055e+00	-6.438174e-03
1.524965749139924e-09	2.015648e+01	4.462428e+00	-8.770873e-03
1.769106374139924e-09	2.015648e+01	4.485769e+00	-1.131389e-02
2.013246999139924e-09	2.015648e+01	4.508937e+00	-1.376489e-02
2.257387624139924e-09	2.015648e+01	4.531503e+00	-1.508831e-02
2.470479869929812e-09	2.015648e+01	4.550202e+00	-1.362827e-02
2.623301425455778e-09	2.015648e+01	4.562699e+00	-9.353742e-03
2.742640824815031e-09	2.015648e+01	4.571711e+00	-2.437823e-03
2.880067153892420e-09	2.015648e+01	4.581283e+00	1.056661e-02
3.010799208075219e-09	2.015648e+01	4.589513e+00	3.046238e-02
3.251749599092034e-09	2.015648e+01	4.602881e+00	8.740439e-02
3.495890224092034e-09	2.015647e+01	4.614641e+00	1.730663e-01
3.740030849092034e-09	2.015646e+01	4.624780e+00	2.945970e-01
3.984171474092034e-09	2.015645e+01	4.633795e+00	4.559772e-01
4.228312099092035e-09	2.015643e+01	4.642165e+00	6.596386e-01
4.472452724092035e-09	2.015642e+01	4.650305e+00	9.067032e-01
4.716593349092035e-09	2.015639e+01	4.658537e+00	1.197227e+00
4.960733974092035e-09	2.015637e+01	4.667094e+00	1.530472e+00
5.204874599092035e-09	2.015634e+01	4.676123e+00	1.905171e+00
5.449015224092035e-09	2.015631e+01	4.685698e+00	2.319756e+00
5.693155849092035e-09	2.015627e+01	4.695837e+00	2.772546e+00
5.937296474092036e-09	2.015623e+01	4.706514e+00	3.261885e+00
6.181437099092036e-09	2.015619e+01	4.717679e+00	3.786241e+00
6.425577724092036e-09	2.015615e+01	4.729264e+00	4.344258e+00
6.669718349092036e-09	2.015610e+01	4.741200e+00	4.934780e+00
6.913858974092036e-09	2.015605e+01	4.753421e+00	5.556849e+00
7.157999599092036e-09	2.015600e+01	4.765866e+00	6.209686e+00
7.402140224092036e-09	2.015594e+01	4.778487e+00	6.892668e+00
7.646280849092036e-09	2.015588e+01	4.791244e+00	7.605297e+00
7.890421474092035e-09	2.015582e+01	4.804108e+00	8.347170e+00
8.134562099092034e-09	2.015575e+01	4.817057e+00	9.117956e+00
8.378702724092034e-09	2.015568e+01	4.830076e+00	9.917377e+00
8.622843349092033e-09	2.015560e+01	4.843156e+00	1.074519e+01
8.866983974092032e-09	2.015552e+01	4.856290e+00	1.160116e+01
9.111124599092032e-09	2.015544e+01	4.869473e+00	1.248510e+01
9.355265224092031e-09	2.015535e+01	4.882703e+00	1.339681e+01
9.599405849092030e-09	2.015526e+01	4.895978e+00	1.433609e+01
9.843546474092030e-09	2.015517e+01	4.909297e+00	1.530276e+01
1.008768709909203e-08	2.015507e+01	4.922659e+00	1.629663e+01
1.033182772409203e-08	2.015496e+01	4.936064e+00	1.731753e+01
1.057596834909203e-08	2.015485e+01	4.949511e+00	1.836528e+01
1.082010897409203e-08	2.015473e+01	4.962999e+00	1.943970e+01
1.106424959909203e-08	2.015461e+01	4.976529e+00	2.054062e+01
1.130839022409203e-08	2.015447e+01	4.990099e+00	2.166785e+01
1.155253084909202e-08	2.015434e+01	5.003710e+00	2.282123e+01
1.179667147409202e-08	2.015419e+01	5.017360e+00	2.400059e+01
1.204081209909202e-08	2.015403e+01	5.031051e+00	2.520575e+01
1.228495272409202e-08	2.015387e+01	5.044781e+00	2.643655e+01
1.252909334909202e-08	2.015370e+01	5.058549e+00	2.769281e+01
1.277323397409202e-08	2.015351e+01	5.072357e+00	2.897437e+01
1.301737459909202e-08	2.015331e+01	5.086203e+00	3.028107e+01
1.326151522409202e-08	2.015310e+01	5.100086e+00	3.161274e+01
1.350565584909202e-08	2.015288e+01	5.114008e+00	3.296920e+01
1.374979647409202e-08	2.015263e+01	5.127966e+00	3.435031e+01
1.399393709909202e-08	2.015237e+01	5.141963e+00	3.575589e+01
1.423807772409202e-08	2.015209e+01	5.155995e+00	3.718578e+01
1.448221834909202e-08	2.015178e+01	5.170064e+00	3.863982e+01
1.472635897409202e-08	2.015144e+01	5.184170e+00	4.011785e+01
1.497049959909202e-08	2.015106e+01	5.198312e+00	4.161970e+01
1.521464022409201e-08	2.015064e+01	5.212489e+00	4.314520e+01
1.545878084909201e-08	2.015017e+01	5.226701e+00	4.469420e+01
1.570292147409201e-08	2.014963e+01	5.240948e+00	4.626653e+01
1.594706209909201e-08	2.014901e+01	5.255229e+00	4.786200e+01
1.619120272409201e-08	2.014826e+01	5.269545e+00	4.948045e+01
1.643534334909201e-08	2.014734e+01	5.283895e+00	5.112168e+01
1.667948397409201e-08	2.014615e+01	5.298278e+00	5.278548e+01
1.692362459909201e-08	2.014440e+01	5.312698e+00	5.447160e+01
1.716776522409201e-08	2.014061e+01	5.327163e+00	5.617947e+01
1.741190584909201e-08	1.766764e+01	5.340528e+00	5.754518e+01
1.765604647409201e-08	1.458989e+01	5.350195e+00	5.812580e+01
1.790018709909201e-08	1.393009e+01	5.355011e+00	5.820000e+01
1.814432772409201e-08	1.375584e+01	5.356421e+00	5.820000e+01
1.838846834909201e-08	1.357048e+01	5.356394e+00	5.820000e+01
1.863260897409200e-08	1.338441e+01	5.355968e+00	5.820000e+01
1.887674959909200e-08	1.319844e+01	5.355484e+00	5.820000e+01
1.912089022409200e-08	1.301613e+01	5.355155e+00	5.820000e+01
1.936503084909200e-08	1.283558e+01	5.354979e+00	5.820000e+01
1.960917147409200e-08	1.265813e+01	5.354897e+00	5.820000e+01
1.985331209909200e-08	1.248301e+01	5.355048e+00	5.820000e+01
2.009745272409200e-08	1.231234e+01	5.355485e+00	5.820000e+01
2.034159334909200e-08	1.214215e+01	5.355913e+00	5.820000e+01
2.058573397409200e-08	1.197269e+01	5.356135e+00	5.820000e+01
2.082987459909200e-08	1.180258e+01	5.356189e+00	5.820000e+01
2.107401522409200e-08	1.163397e+01	5.356138e+00	5.820000e+01
2.131815584909200e-08	1.146541e+01	5.356006e+00	5.820000e+01
2.156229647409200e-08	1.129870e+01	5.355818e+00	5.820000e+01
2.180643709909200e-08	1.113160e+01	5.355477e+00	5.820000e+01
2.205057772409200e-08	1.096531e+01	5.354932e+00	5.820000e+01
2.229471834909199e-08	1.079996e+01	5.354417e+00	5.820000e+01
2.253885897409199e-08	1.063804e+01	5.354074e+00	5.820000e+01
2.278299959909199e-08	1.047810e+01	5.353913e+00	5.820000e+01
2.302714022409199e-08	1.032136e+01	5.353905e+00	5.820000e+01
2.327128084909199e-08	1.016588e+01	5.353978e+00	5.820000e+01
2.351542147409199e-08	1.001271e+01	5.354079e+00	5.820000e+01
2.375956209909199e-08	9.860160e+00	5.354168e+00	5.820000e+01
2.400370272409199e-08	9.709520e+00	5.354229e+00	5.820000e+01
2.424784334909199e-08	9.559423e+00	5.354259e+00	5.820000e+01
2.449198397409199e-08	9.411261e+00	5.354270e+00	5.820000e+01
2.473612459909199e-08	9.263787e+00	5.354270e+00	5.820000e+01
2.498026522409199e-08	9.118348e+00	5.354267e+00	5.820000e+01
2.522440584909199e-08	8.973704e+00	5.354268e+00	5.820000e+01
2.546854647409199e-08	8.831112e+00	5.354274e+00	5.820000e+01
2.571268709909199e-08	8.689338e+00	5.354285e+00	5.820000e+01
2.595682772409198e-08	8.549578e+00	5.354299e+00	5.820000e+01
2.620096834909198e-08	8.410629e+00	5.354314e+00	5.820000e+01
2.644510897409198e-08	8.273652e+00	5.354330e+00	5.820000e+01
2.668924959909198e-08	8.137491e+00	5.354346e+00	5.820000e+01
2.693339022409198e-08	8.003272e+00	5.354361e+00	5.820000e+01
2.717753084909198e-08	7.869883e+00	5.354376e+00	5.820000e+01
2.742167147409198e-08	7.738415e+00	5.354391e+00	5.820000e+01
2.766581209909198e-08	7.607792e+00	5.354406e+00	5.820000e+01
2.790995272409198e-08	7.479070e+00	5.354422e+00	5.820000e+01
2.815409334909198e-08	7.351205e+00	5.354437e+00	5.820000e+01
2.839823397409198e-08	7.225218e+00	5.354454e+00	5.820000e+01
2.864237459909198e-08	7.100101e+00	5.354471e+00	5.820000e+01
2.888651522409198e-08	6.976840e+00	5.354488e+00	5.820000e+01
2.913065584909198e-08	6.854457e+00	5.354506e+00	5.820000e+01
2.937479647409197e-08	6.733909e+00	5.354523e+00	5.820000e+01
2.961893709909197e-08	6.614249e+00	5.354541e+00	5.820000e+01
2.986307772409198e-08	6.496403e+00	5.354560e+00	5.820000e+01
3.010721834909198e-08	6.379454e+00	5.354579e+00	5.820000e+01
3.035135897409198e-08	6.264299e+00	5.354598e+00	5.820000e+01
3.059549959909198e-08	6.150049e+00	5.354617e+00	5.820000e+01
3.083964022409198e-08	6.037573e+00	5.354637e+00	5.820000e+01
3.108378084909198e-08	5.926011e+00	5.354657e+00	5.820000e+01
3.132792147409198e-08	5.816202e+00	5.354677e+00	5.820000e+01
3.157206209909198e-08	5.707315e+00	5.354697e+00	5.820000e+01
3.181620272409197e-08	5.600161e+00	5.354718e+00	5.820000e+01
3.206034334909197e-08	5.493936e+00	5.354739e+00	5.820000e+01
3.230448397409197e-08	5.389425e+00	5.354760e+00	5.820000e+01
3.254862459909197e-08	5.285850e+00	5.354781e+00	5.820000e+01
3.279276522409197e-08	5.183970e+00	5.354803e+00	5.820000e+01
3.303690584909197e-08	5.083031e+00	5.354824e+00	5.820000e+01
3.328104647409197e-08	4.983769e+00	5.354846e+00	5.820000e+01
3.352518709909197e-08	4.885454e+00	5.354868e+00	5.820000e+01
3.376932772409197e-08	4.788798e+00	5.354890e+00	5.820000e+01
3.401346834909197e-08	4.693093e+00	5.354912e+00	5.820000e+01
3.425760897409197e-08	4.599028e+00	5.354935e+00	5.820000e+01
3.450174959909197e-08	4.505919e+00	5.354957e+00	5.820000e+01
3.474589022409197e-08	4.414433e+00	5.354979e+00	5.820000e+01
3.499003084909197e-08	4.323908e+00	5.355001e+00	5.820000e+01
3.523417147409197e-08	4.234986e+00	5.355023e+00	5.820000e+01
3.547831209909196e-08	4.147029e+00	5.355045e+00	5.820000e+01
3.572245272409196e-08	4.060658e+00	5.355067e+00	5.820000e+01
3.596659334909196e-08	3.975255e+00	5.355089e+00	5.820000e+01
3.621073397409196e-08	3.891421e+00	5.355111e+00	5.820000e+01
3.645487459909196e-08	3.808557e+00	5.355132e+00	5.820000e+01
3.669901522409196e-08	3.727245e+00	5.355153e+00	5.820000e+01
3.694315584909196e-08	3.646905e+00	5.355173e+00	5.820000e+01
3.718729647409196e-08	3.568101e+00	5.355194e+00	5.820000e+01
3.743143709909196e-08	3.490269e+00	5.355213e+00	5.820000e+01
3.767557772409196e-08	3.413957e+00	5.355232e+00	5.820000e+01
3.791971834909196e-08	3.338618e+00	5.355251e+00	5.820000e+01
3.816385897409196e-08	3.264782e+00	5.355268e+00	5.820000e+01
3.840799959909196e-08	3.191921e+00	5.355286e+00	5.820000e+01
3.865214022409196e-08	3.120545e+00	5.355301e+00	5.820000e+01
3.889628084909195e-08	3.050144e+00	5.355317e+00	5.820000e+01
3.914042147409195e-08	2.981212e+00	5.355331e+00	5.820000e+01
3.938456209909195e-08	2.913255e+00	5.355344e+00	5.820000e+01
3.962870272409195e-08	2.846750e+00	5.355356e+00	5.820000e+01
3.987284334909195e-08	2.781219e+00	5.355366e+00	5.820000e+01
4.011698397409195e-08	2.717123e+00	5.355375e+00	5.820000e+01
4.036112459909195e-08	2.654001e+00	5.355382e+00	5.820000e+01
4.060526522409195e-08	2.592297e+00	5.355388e+00	5.820000e+01
4.084940584909195e-08	2.531564e+00	5.355392e+00	5.820000e+01
4.109354647409195e-08	2.472234e+00	5.355394e+00	5.820000e+01
4.133768709909195e-08	2.413873e+00	5.355393e+00	5.820000e+01
4.158182772409195e-08	2.356897e+00	5.355391e+00	5.820000e+01
4.182596834909195e-08	2.300887e+00	5.355385e+00	5.820000e+01
4.207010897409195e-08	2.246246e+00	5.355377e+00	5.820000e+01
4.231424959909195e-08	2.192568e+00	5.355366e+00	5.820000e+01
4.255839022409194e-08	2.140242e+00	5.355352e+00	5.820000e+01
4.280253084909194e-08	2.088873e+00	5.355335e+00	5.820000e+01
4.304667147409194e-08	2.038840e+00	5.355315e+00	5.820000e+01
4.329081209909194e-08	1.989808e+00	5.355310e+00	5.820000e+01
4.353495272409194e-08	1.942197e+00	5.355350e+00	5.820000e+01
4.377909334909194e-08	1.895553e+00	5.355401e+00	5.820000e+01
4.402323397409194e-08	1.850119e+00	5.355410e+00	5.820000e+01
4.426737459909194e-08	1.805562e+00	5.355382e+00	5.820000e+01
4.451151522409194e-08	1.762274e+00	5.355343e+00	5.820000e+01
4.475565584909194e-08	1.719904e+00	5.355293e+00	5.820000e+01
4.499979647409194e-08	1.678747e+00	5.355213e+00	5.820000e+01
4.524393709909194e-08	1.638435e+00	5.355085e+00	5.820000e+01
4.548807772409194e-08	1.599348e+00	5.354934e+00	5.820000e+01
4.573221834909194e-08	1.561237e+00	5.354805e+00	5.820000e+01
4.597635897409194e-08	1.524407e+00	5.354707e+00	5.820000e+01
4.622049959909193e-08	1.488507e+00	5.354620e+00	5.820000e+01
4.646464022409193e-08	1.453808e+00	5.354534e+00	5.820000e+01
4.670878084909193e-08	1.419989e+00	5.354441e+00	5.820000e+01
4.695292147409193e-08	1.387330e+00	5.354341e+00	5.820000e+01
4.719706209909193e-08	1.355527e+00	5.354235e+00	5.820000e+01
4.744120272409193e-08	1.324850e+00	5.354125e+00	5.820000e+01
4.768534334909193e-08	1.294996e+00	5.354012e+00	5.820000e+01
4.792948397409193e-08	1.266215e+00	5.353900e+00	5.820000e+01
4.817362459909193e-08	1.238201e+00	5.353792e+00	5.820000e+01
4.841776522409193e-08	1.211176e+00	5.353693e+00	5.820000e+01
4.866190584909193e-08	1.184812e+00	5.353615e+00	5.820000e+01
4.890604647409193e-08	1.159271e+00	5.353573e+00	5.820000e+01
4.915018709909193e-08	1.134145e+00	5.353603e+00	5.820000e+01
4.939432772409193e-08	1.109398e+00	5.353782e+00	5.820000e+01
4.963846834909192e-08	1.084163e+00	5.354313e+00	5.820000e+01
4.988260897409192e-08	1.055821e+00	5.356333e+00	5.820000e+01
5.012674959909192e-08	1.021383e+00	5.362293e+00	5.820000e+01
5.025776920870772e-08	9.846066e-01	5.369307e+00	5.820000e+01
5.033166429632605e-08	9.771847e-01	5.375336e+00	5.820000e+01
5.036862160270684e-08	9.432248e-01	5.378680e+00	5.820000e+01
5.039054824280406e-08	9.443827e-01	5.380471e+00	5.820000e+01
5.041193467255802e-08	9.398997e-01	5.381842e+00	5.820000e+01
5.043277679227612e-08	9.215117e-01	5.382617e+00	5.820000e+01
5.046713805671016e-08	9.229968e-01	5.382511e+00	5.820000e+01
5.051704576568949e-08	9.026035e-01	5.379643e+00	5.820000e+01
5.059834532604871e-08	8.903684e-01	5.370924e+00	5.820000e+01
5.068687656066146e-08	8.811035e-01	5.359884e+00	5.820000e+01
5.078260981332196e-08	8.800240e-01	5.350209e+00	5.820000e+01
5.090522937567106e-08	8.793235e-01	5.344394e+00	5.820000e+01
5.114602931034364e-08	8.809826e-01	5.344273e+00	5.820000e+01
5.138512078296137e-08	8.746234e-01	5.348165e+00	5.820000e+01
5.162926140796137e-08	8.630792e-01	5.350387e+00	5.820000e+01
5.187340203296137e-08	8.515676e-01	5.349745e+00	5.820000e+01
5.211754265796137e-08	8.418531e-01	5.348800e+00	5.820000e+01
5.236168328296137e-08	8.324849e-01	5.348888e+00	5.820000e+01
5.260582390796137e-08	8.225168e-01	5.349464e+00	5.820000e+01
5.284996453296136e-08	8.119774e-01	5.349794e+00	5.820000e+01
5.309410515796136e-08	8.013385e-01	5.349809e+00	5.820000e+01
5.333824578296136e-08	7.907168e-01	5.349782e+00	5.820000e+01
5.358238640796136e-08	7.801229e-01	5.349871e+00	5.820000e+01
5.382652703296136e-08	7.693993e-01	5.350036e+00	5.820000e+01
5.407066765796136e-08	7.585952e-01	5.350189e+00	5.820000e+01
5.431480828296136e-08	7.476860e-01	5.350307e+00	5.820000e+01
5.455894890796136e-08	7.367616e-01	5.350412e+00	5.820000e+01
5.480308953296136e-08	7.257682e-01	5.350525e+00	5.820000e+01
5.504723015796136e-08	7.147632e-01	5.350647e+00	5.820000e+01
5.529137078296136e-08	7.036902e-01	5.350772e+00	5.820000e+01
5.553551140796136e-08	6.926116e-01	5.350895e+00	5.820000e+01
5.577965203296136e-08	6.814765e-01	5.351021e+00	5.820000e+01
5.602379265796136e-08	6.703434e-01	5.351149e+00	5.820000e+01
5.626793328296135e-08	6.591607e-01	5.351280e+00	5.820000e+01
5.651207390796135e-08	6.479843e-01	5.351415e+00	5.820000e+01
5.675621453296135e-08	6.367640e-01	5.351553e+00	5.820000e+01
5.700035515796135e-08	6.255535e-01	5.351696e+00	5.820000e+01
5.724449578296135e-08	6.143040e-01	5.351843e+00	5.820000e+01
5.748863640796135e-08	6.030670e-01	5.351995e+00	5.820000e+01
5.773277703296135e-08	5.917951e-01	5.352152e+00	5.820000e+01
5.797691765796135e-08	5.805379e-01	5.352315e+00	5.820000e+01
5.822105828296135e-08	5.692492e-01	5.352484e+00	5.820000e+01
5.846519890796135e-08	5.579770e-01	5.352659e+00	5.820000e+01
5.870933953296135e-08	5.466766e-01	5.352841e+00	5.820000e+01
5.895348015796135e-08	5.353942e-01	5.353031e+00	5.820000e+01
5.919762078296135e-08	5.240864e-01	5.353229e+00	5.820000e+01
5.944176140796135e-08	5.127980e-01	5.353435e+00	5.820000e+01
5.968590203296135e-08	5.014869e-01	5.353651e+00	5.820000e+01
5.993004265796135e-08	4.901965e-01	5.353876e+00	5.820000e+01
6.017418328296136e-08	4.788861e-01	5.354113e+00	5.820000e+01
6.041832390796136e-08	4.675978e-01	5.354361e+00	5.820000e+01
6.066246453296137e-08	4.562920e-01	5.354621e+00	5.820000e+01
6.090660515796137e-08	4.450097e-01	5.354896e+00	5.820000e+01
6.115074578296138e-08	4.337128e-01	5.355185e+00	5.820000e+01
6.139488640796139e-08	4.224409e-01	5.355490e+00	5.820000e+01
6.163902703296139e-08	4.111574e-01	5.355812e+00	5.820000e+01
6.188316765796140e-08	3.999008e-01	5.356153e+00	5.820000e+01
6.212730828296140e-08	3.886359e-01	5.356514e+00	5.820000e+01
6.237144890796141e-08	3.774001e-01	5.356899e+00	5.820000e+01
6.261558953296142e-08	3.661598e-01	5.357308e+00	5.820000e+01
6.285973015796142e-08	3.549517e-01	5.357744e+00	5.820000e+01
6.310387078296143e-08	3.437434e-01	5.358210e+00	5.820000e+01
6.334801140796143e-08	3.325709e-01	5.358709e+00	5.820000e+01
6.359215203296144e-08	3.214037e-01	5.359244e+00	5.820000e+01
6.383629265796145e-08	3.102773e-01	5.359821e+00	5.820000e+01
6.408043328296145e-08	2.991628e-01	5.360443e+00	5.820000e+01
6.432457390796146e-08	2.880956e-01	5.361115e+00	5.820000e+01
6.456871453296146e-08	2.770583e-01	5.361854e+00	5.820000e+01
6.481285515796147e-08	2.663604e-01	5.362952e+00	5.820000e+01
6.505699578296148e-08	2.567190e-01	5.365360e+00	5.820000e+01
6.530113640796148e-08	2.487825e-01	5.370160e+00	5.820000e+01
6.554527703296149e-08	2.424525e-01	5.377556e+00	5.820000e+01
6.578941765796149e-08	2.373338e-01	5.386971e+00	5.820000e+01
6.603355828296150e-08	2.330316e-01	5.397787e+00	5.820000e+01
6.627769890796151e-08	2.293287e-01	5.409581e+00	5.820000e+01
6.652183953296151e-08	2.260482e-01	5.422090e+00	5.820000e+01
6.676598015796152e-08	2.231244e-01	5.435155e+00	5.820000e+01
6.701012078296152e-08	2.204677e-01	5.448670e+00	5.820000e+01
6.725426140796153e-08	2.180580e-01	5.462559e+00	5.820000e+01
6.749840203296154e-08	2.158347e-01	5.476765e+00	5.820000e+01
6.774254265796154e-08	2.137951e-01	5.491241e+00	5.820000e+01
6.798668328296155e-08	2.118925e-01	5.505955e+00	5.820000e+01
6.823082390796155e-08	2.101332e-01	5.520874e+00	5.820000e+01
6.847496453296156e-08	2.084782e-01	5.535977e+00	5.820000e+01
6.871910515796156e-08	2.069386e-01	5.551242e+00	5.820000e+01
6.896324578296157e-08	2.054807e-01	5.566654e+00	5.820000e+01
6.920738640796158e-08	2.041180e-01	5.582197e+00	5.820000e+01
6.945152703296158e-08	2.028203e-01	5.597859e+00	5.820000e+01
6.969566765796159e-08	2.016030e-01	5.613630e+00	5.820000e+01
6.993980828296159e-08	2.004383e-01	5.629499e+00	5.820000e+01
7.018394890796160e-08	1.993423e-01	5.645459e+00	5.820000e+01
7.042808953296161e-08	1.982893e-01	5.661503e+00	5.820000e+01
7.067223015796161e-08	1.972960e-01	5.677623e+00	5.820000e+01
7.091637078296162e-08	1.963383e-01	5.693814e+00	5.820000e+01
7.116051140796162e-08	1.954329e-01	5.710072e+00	5.820000e+01
7.140465203296163e-08	1.945573e-01	5.726390e+00	5.820000e+01
7.164879265796164e-08	1.937279e-01	5.742766e+00	5.820000e+01
7.189293328296164e-08	1.929234e-01	5.759195e+00	5.820000e+01
7.213707390796165e-08	1.921602e-01	5.775674e+00	5.820000e+01
7.238121453296165e-08	1.914181e-01	5.792199e+00	5.820000e+01
7.262535515796166e-08	1.907131e-01	5.808768e+00	5.820000e+01
7.286949578296167e-08	1.900259e-01	5.825378e+00	5.820000e+01
7.311363640796167e-08	1.893724e-01	5.842028e+00	5.820000e+01
7.335777703296168e-08	1.887339e-01	5.858713e+00	5.820000e+01
